T3090 143:996.384   SEGGER J-Link V7.52b Log File
T3090 143:996.572   DLL Compiled: Aug  3 2021 16:53:06
T3090 143:996.598   Logging started @ 2023-09-05 01:57
T3090 143:996.609 - 143996.615ms
T3090 143:996.634 JLINK_SetWarnOutHandler(...)
T3090 143:996.647 - 0.018ms
T3090 143:996.660 JLINK_OpenEx(...)
T3090 143:998.964   Firmware: J-Link V9 compiled May  7 2021 16:26:12
T3090 143:999.356   Firmware: J-Link V9 compiled May  7 2021 16:26:12
T3090 143:999.558   Decompressing FW timestamp took 147 us
T3090 144:005.738   Hardware: V9.50
T3090 144:005.783   S/N: 595554037
T3090 144:005.802   OEM: SEGGER
T3090 144:005.821   Feature(s): GDB, RDI, FlashBP, FlashDL, JFlash
T3090 144:006.758   TELNET listener socket opened on port 19021
T3090 144:006.988   WEBSRV Starting webserver
T3090 144:007.074   WEBSRV Webserver running on local port 19080
T3090 144:018.935 - 22.301ms returns "O.K."
T3090 144:018.993 JLINK_GetEmuCaps()
T3090 144:019.006 - 0.019ms returns 0xB9FF7BBF
T3090 144:019.023 JLINK_TIF_GetAvailable(...)
T3090 144:019.243 - 0.228ms
T3090 144:019.262 JLINK_SetErrorOutHandler(...)
T3090 144:019.274 - 0.018ms
T3090 144:019.307 JLINK_ExecCommand("ProjectFile = "E:\2023-05\高速风筒 038最新\doubleshunt0801――038_一对极过零检测光耦_过零光耦\JLinkSettings.ini"", ...). 
T3090 144:036.286   Ref file found at: C:\Keil_v5\ARM\Segger\JLinkDevices.ref
T3090 144:036.441   XML referenced by ref file: C:\Program Files\SEGGER\JLink\JLinkDevices.xml
T3090 144:037.184   C:\Program Files\SEGGER\JLink\JLinkDevices.xml evaluated successfully.
T3090 144:104.171   Device "CORTEX-M0" selected.
T3090 144:104.655 - 85.360ms returns 0x00
T3090 144:107.737 JLINK_ExecCommand("Device = LKS32MC038Y6P8", ...). 
T3090 144:110.456   Device "CORTEX-M0" selected.
T3090 144:110.919 - 3.168ms returns 0x00
T3090 144:110.939 JLINK_ExecCommand("DisableConnectionTimeout", ...). 
T3090 144:110.955 - 0.007ms returns 0x01
T3090 144:110.972 JLINK_GetHardwareVersion()
T3090 144:110.984 - 0.018ms returns 95000
T3090 144:111.004 JLINK_GetDLLVersion()
T3090 144:111.015 - 0.017ms returns 75202
T3090 144:111.029 JLINK_GetOEMString(...)
T3090 144:111.042 JLINK_GetFirmwareString(...)
T3090 144:111.054 - 0.017ms
T3090 144:120.486 JLINK_GetDLLVersion()
T3090 144:120.522 - 0.042ms returns 75202
T3090 144:120.541 JLINK_GetCompileDateTime()
T3090 144:120.553 - 0.018ms
T3090 144:122.519 JLINK_GetFirmwareString(...)
T3090 144:122.539 - 0.025ms
T3090 144:124.388 JLINK_GetHardwareVersion()
T3090 144:124.406 - 0.024ms returns 95000
T3090 144:126.252 JLINK_GetSN()
T3090 144:126.270 - 0.024ms returns 595554037
T3090 144:128.120 JLINK_GetOEMString(...)
T3090 144:133.577 JLINK_TIF_Select(JLINKARM_TIF_SWD)
T3090 144:134.378 - 0.814ms returns 0x00
T3090 144:134.403 JLINK_HasError()
T3090 144:134.447 JLINK_SetSpeed(5000)
T3090 144:134.542 - 0.103ms
T3090 144:134.561 JLINK_GetId()
T3090 144:137.594   Found SW-DP with ID 0x0BB11477
T3090 144:142.050   DPIDR: 0x0BB11477
T3090 144:144.187   Scanning AP map to find all available APs
T3090 144:146.980   AP[1]: Stopped AP scan as end of AP map has been reached
T3090 144:149.004   AP[0]: AHB-AP (IDR: 0x04770021)
T3090 144:151.089   Iterating through AP map to find AHB-AP to use
T3090 144:153.876   AP[0]: Core found
T3090 144:155.760   AP[0]: AHB-AP ROM base: 0xE00FF000
T3090 144:159.162   CPUID register: 0x410CC200. Implementer code: 0x41 (ARM)
T3090 144:162.804   Found Cortex-M0 r0p0, Little endian.
T3090 144:264.377   -- Max. mem block: 0x00010E60
T3090 144:264.603   CPU_ReadMem(4 bytes @ 0xE000EDF0)
T3090 144:265.104   CPU_WriteMem(4 bytes @ 0xE000EDF0)
T3090 144:265.505   CPU_ReadMem(4 bytes @ 0xE0002000)
T3090 144:268.277   FPUnit: 2 code (BP) slots and 0 literal slots
T3090 144:268.322   CPU_ReadMem(4 bytes @ 0xE000EDFC)
T3090 144:268.745   CPU_WriteMem(4 bytes @ 0xE000EDFC)
T3090 144:269.167   CPU_ReadMem(4 bytes @ 0xE0001000)
T3090 144:269.496   CPU_WriteMem(4 bytes @ 0xE0001000)
T3090 144:273.821   CoreSight components:
T3090 144:275.735   ROMTbl[0] @ E00FF000
T3090 144:275.765   CPU_ReadMem(64 bytes @ 0xE00FF000)
T3090 144:276.498   CPU_ReadMem(32 bytes @ 0xE000EFE0)
T3090 144:278.796   ROMTbl[0][0]: E000E000, CID: B105E00D, PID: 000BB008 SCS
T3090 144:278.824   CPU_ReadMem(32 bytes @ 0xE0001FE0)
T3090 144:281.185   ROMTbl[0][1]: E0001000, CID: B105E00D, PID: 000BB00A DWT
T3090 144:281.211   CPU_ReadMem(32 bytes @ 0xE0002FE0)
T3090 144:284.335   ROMTbl[0][2]: E0002000, CID: B105E00D, PID: 000BB00B FPB
T3090 144:284.688 - 150.153ms returns 0x0BB11477
T3090 144:284.729 JLINK_GetDLLVersion()
T3090 144:284.760 - 0.036ms returns 75202
T3090 144:284.778 JLINK_CORE_GetFound()
T3090 144:284.791 - 0.018ms returns 0x60000FF
T3090 144:284.819 JLINK_GetDebugInfo(0x100 = JLINKARM_ROM_TABLE_ADDR_INDEX)
T3090 144:284.850   Value=0xE00FF000
T3090 144:284.888 - 0.076ms returns 0
T3090 144:288.139 JLINK_GetDebugInfo(0x100 = JLINKARM_ROM_TABLE_ADDR_INDEX)
T3090 144:288.162   Value=0xE00FF000
T3090 144:288.180 - 0.047ms returns 0
T3090 144:288.194 JLINK_GetDebugInfo(0x101 = JLINKARM_DEBUG_INFO_ETM_ADDR_INDEX)
T3090 144:288.207   Value=0x00000000
T3090 144:288.225 - 0.037ms returns 0
T3090 144:288.255 JLINK_ReadMemEx(0xE0041FF0, 0x10 Bytes, Flags = 0x02000004)
T3090 144:288.309   CPU_ReadMem(16 bytes @ 0xE0041FF0)
T3090 144:288.610   Data:  00 00 00 00 00 00 00 00 00 00 00 00 00 00 00 00
T3090 144:288.631 - 0.396ms returns 16 (0x10)
T3090 144:288.659 JLINK_GetDebugInfo(0x102 = JLINKARM_DEBUG_INFO_MTB_ADDR_INDEX)
T3090 144:288.672   Value=0x00000000
T3090 144:288.689 - 0.035ms returns 0
T3090 144:288.701 JLINK_GetDebugInfo(0x103 = JLINKARM_DEBUG_INFO_TPIU_ADDR_INDEX)
T3090 144:288.714   Value=0x00000000
T3090 144:288.730 - 0.035ms returns 0
T3090 144:288.743 JLINK_ReadMemEx(0xE0040FF0, 0x10 Bytes, Flags = 0x02000004)
T3090 144:288.763   CPU_ReadMem(16 bytes @ 0xE0040FF0)
T3090 144:289.063   Data:  00 00 00 00 00 00 00 00 00 00 00 00 00 00 00 00
T3090 144:289.083 - 0.359ms returns 16 (0x10)
T3090 144:289.111 JLINK_GetDebugInfo(0x104 = JLINKARM_DEBUG_INFO_ITM_ADDR_INDEX)
T3090 144:289.123   Value=0xE0000000
T3090 144:289.140 - 0.035ms returns 0
T3090 144:289.152 JLINK_GetDebugInfo(0x105 = JLINKARM_DEBUG_INFO_DWT_ADDR_INDEX)
T3090 144:289.164   Value=0xE0001000
T3090 144:289.181 - 0.034ms returns 0
T3090 144:289.193 JLINK_GetDebugInfo(0x106 = JLINKARM_DEBUG_INFO_FPB_ADDR_INDEX)
T3090 144:289.206   Value=0xE0002000
T3090 144:289.223 - 0.035ms returns 0
T3090 144:289.235 JLINK_GetDebugInfo(0x107 = JLINKARM_DEBUG_INFO_NVIC_ADDR_INDEX)
T3090 144:289.247   Value=0xE000E000
T3090 144:289.264 - 0.034ms returns 0
T3090 144:289.276 JLINK_GetDebugInfo(0x10C = JLINKARM_DEBUG_INFO_DBG_ADDR_INDEX)
T3090 144:289.288   Value=0xE000EDF0
T3090 144:289.305 - 0.034ms returns 0
T3090 144:289.317 JLINK_GetDebugInfo(0x01 = Unknown)
T3090 144:289.329   Value=0x00000000
T3090 144:289.346 - 0.034ms returns 0
T3090 144:289.360 JLINK_ReadMemU32(0xE000ED00, 0x1 Items)
T3090 144:289.375   CPU_ReadMem(4 bytes @ 0xE000ED00)
T3090 144:289.627   Data:  00 C2 0C 41
T3090 144:289.647   Debug reg: CPUID
T3090 144:289.665 - 0.311ms returns 1 (0x1)
T3090 144:289.679 JLINK_GetDebugInfo(0x10F = JLINKARM_DEBUG_INFO_HAS_CORTEX_M_SECURITY_EXT_INDEX)
T3090 144:289.692   Value=0x00000000
T3090 144:289.710 - 0.037ms returns 0
T3090 144:289.724 JLINK_HasError()
T3090 144:289.738 JLINK_SetResetType(JLINKARM_CM3_RESET_TYPE_NORMAL)
T3090 144:289.751 - 0.019ms returns JLINKARM_CM3_RESET_TYPE_NORMAL
T3090 144:289.765 JLINK_Reset()
T3090 144:289.796   CPU is running
T3090 144:289.816   CPU_WriteMem(4 bytes @ 0xE000EDF0)
T3090 144:290.032   CPU is running
T3090 144:290.053   CPU_WriteMem(4 bytes @ 0xE000EDFC)
T3090 144:292.254   Reset: Halt core after reset via DEMCR.VC_CORERESET.
T3090 144:294.444   Reset: Reset device via AIRCR.SYSRESETREQ.
T3090 144:294.470   CPU is running
T3090 144:294.490   CPU_WriteMem(4 bytes @ 0xE000ED0C)
T3090 144:347.281   CPU_ReadMem(4 bytes @ 0xE000EDF0)
T3090 144:347.576   CPU_ReadMem(4 bytes @ 0xE000EDF0)
T3090 144:347.852   CPU is running
T3090 144:347.874   CPU_WriteMem(4 bytes @ 0xE000EDF0)
T3090 144:348.156   CPU is running
T3090 144:348.177   CPU_WriteMem(4 bytes @ 0xE000EDFC)
T3090 144:353.852   CPU_ReadMem(4 bytes @ 0xE000EDF0)
T3090 144:355.952   CPU_WriteMem(4 bytes @ 0xE0002000)
T3090 144:356.279   CPU_ReadMem(4 bytes @ 0xE000EDFC)
T3090 144:356.522   CPU_ReadMem(4 bytes @ 0xE0001000)
T3090 144:356.805   CPU_WriteMem(4 bytes @ 0xE0001000)
T3090 144:357.052 - 67.295ms
T3090 144:357.101 JLINK_Halt()
T3090 144:357.115 - 0.020ms returns 0x00
T3090 144:357.129 JLINK_ReadMemU32(0xE000EDF0, 0x1 Items)
T3090 144:357.147   CPU_ReadMem(4 bytes @ 0xE000EDF0)
T3090 144:357.398   Data:  03 00 03 00
T3090 144:357.419   Debug reg: DHCSR
T3090 144:357.437 - 0.313ms returns 1 (0x1)
T3090 144:357.458 JLINK_WriteU32_64(0xE000EDF0, 0xA05F0003)
T3090 144:357.471   Debug reg: DHCSR
T3090 144:357.730   CPU_WriteMem(4 bytes @ 0xE000EDF0)
T3090 144:358.024 - 0.574ms returns 0 (0x00000000)
T3090 144:358.041 JLINK_WriteU32_64(0xE000EDFC, 0x01000000)
T3090 144:358.054   Debug reg: DEMCR
T3090 144:358.074   CPU_WriteMem(4 bytes @ 0xE000EDFC)
T3090 144:358.399 - 0.367ms returns 0 (0x00000000)
T3090 144:366.710 JLINK_GetHWStatus(...)
T3090 144:366.893 - 0.196ms returns 0
T3090 144:372.797 JLINK_GetNumBPUnits(Type = 0xFFFFFF00)
T3090 144:372.832 - 0.041ms returns 0x02
T3090 144:372.846 JLINK_GetNumBPUnits(Type = 0xF0)
T3090 144:372.859 - 0.019ms returns 0x2000
T3090 144:372.873 JLINK_GetNumWPUnits()
T3090 144:372.885 - 0.018ms returns 2
T3090 144:378.567 JLINK_GetSpeed()
T3090 144:378.598 - 0.037ms returns 4000
T3090 144:382.882 JLINK_ReadMemU32(0xE000E004, 0x1 Items)
T3090 144:382.932   CPU_ReadMem(4 bytes @ 0xE000E004)
T3090 144:383.290   Data:  00 00 00 00
T3090 144:383.317 - 0.440ms returns 1 (0x1)
T3090 144:383.335 JLINK_Halt()
T3090 144:383.348 - 0.019ms returns 0x00
T3090 144:383.366 JLINK_IsHalted()
T3090 144:383.379 - 0.019ms returns TRUE
T3090 144:385.747 JLINK_WriteMem(0x20000000, 0x14C Bytes, ...)
T3090 144:385.770   Data:  00 BE 0A E0 0D 78 2D 06 68 40 08 24 40 00 00 D3 ...
T3090 144:385.993   CPU_WriteMem(332 bytes @ 0x20000000)
T3090 144:387.543 - 1.839ms returns 0x14C
T3090 144:387.610 JLINK_HasError()
T3090 144:387.627 JLINK_WriteReg(R0, 0x00000000)
T3090 144:387.642 - 0.021ms returns 0
T3090 144:387.656 JLINK_WriteReg(R1, 0x00B71B00)
T3090 144:387.669 - 0.019ms returns 0
T3090 144:387.682 JLINK_WriteReg(R2, 0x00000001)
T3090 144:387.695 - 0.019ms returns 0
T3090 144:387.708 JLINK_WriteReg(R3, 0x00000000)
T3090 144:387.721 - 0.019ms returns 0
T3090 144:387.734 JLINK_WriteReg(R4, 0x00000000)
T3090 144:387.747 - 0.019ms returns 0
T3090 144:387.761 JLINK_WriteReg(R5, 0x00000000)
T3090 144:387.774 - 0.019ms returns 0
T3090 144:387.787 JLINK_WriteReg(R6, 0x00000000)
T3090 144:387.800 - 0.019ms returns 0
T3090 144:387.813 JLINK_WriteReg(R7, 0x00000000)
T3090 144:387.826 - 0.019ms returns 0
T3090 144:387.839 JLINK_WriteReg(R8, 0x00000000)
T3090 144:387.862 - 0.029ms returns 0
T3090 144:387.876 JLINK_WriteReg(R9, 0x20000148)
T3090 144:387.888 - 0.018ms returns 0
T3090 144:387.902 JLINK_WriteReg(R10, 0x00000000)
T3090 144:387.914 - 0.019ms returns 0
T3090 144:387.927 JLINK_WriteReg(R11, 0x00000000)
T3090 144:387.940 - 0.019ms returns 0
T3090 144:387.953 JLINK_WriteReg(R12, 0x00000000)
T3090 144:387.966 - 0.019ms returns 0
T3090 144:387.979 JLINK_WriteReg(R13 (SP), 0x20001000)
T3090 144:387.993 - 0.019ms returns 0
T3090 144:388.006 JLINK_WriteReg(R14, 0x20000001)
T3090 144:388.019 - 0.018ms returns 0
T3090 144:388.032 JLINK_WriteReg(R15 (PC), 0x20000038)
T3090 144:388.049 - 0.023ms returns 0
T3090 144:388.062 JLINK_WriteReg(XPSR, 0x01000000)
T3090 144:388.075 - 0.019ms returns 0
T3090 144:388.088 JLINK_WriteReg(MSP, 0x20001000)
T3090 144:388.100 - 0.019ms returns 0
T3090 144:388.114 JLINK_WriteReg(PSP, 0x20001000)
T3090 144:388.127 - 0.018ms returns 0
T3090 144:388.140 JLINK_WriteReg(CFBP, 0x00000000)
T3090 144:388.153 - 0.019ms returns 0
T3090 144:388.167 JLINK_SetBPEx(Addr = 0x20000000, Type = 0xFFFFFFF2)
T3090 144:388.186   CPU_ReadMem(4 bytes @ 0x20000000)
T3090 144:388.431   CPU_WriteMem(4 bytes @ 0x20000000)
T3090 144:388.669   CPU_ReadMem(4 bytes @ 0x20000000)
T3090 144:388.908   CPU_WriteMem(4 bytes @ 0x20000000)
T3090 144:389.150   CPU_ReadMem(2 bytes @ 0x20000000)
T3090 144:389.403 - 1.244ms returns 0x00000001
T3090 144:389.421 JLINK_Go()
T3090 144:389.440   CPU_WriteMem(2 bytes @ 0x20000000)
T3090 144:389.796   CPU_ReadMem(4 bytes @ 0xE0001000)
T3090 144:390.150   CPU_WriteMem(4 bytes @ 0xE0001000)
T3090 144:390.171   CPU_WriteMem(4 bytes @ 0xE0002008)
T3090 144:390.189   CPU_WriteMem(4 bytes @ 0xE000200C)
T3090 144:390.909   CPU_WriteMem(4 bytes @ 0xE0001004)
T3090 144:393.013 - 3.600ms
T3090 144:393.030 JLINK_IsHalted()
T3090 144:394.846   CPU_ReadMem(2 bytes @ 0x20000000)
T3090 144:395.067 - 2.044ms returns TRUE
T3090 144:395.084 JLINK_ReadReg(R15 (PC))
T3090 144:395.098 - 0.020ms returns 0x20000000
T3090 144:395.112 JLINK_ClrBPEx(BPHandle = 0x00000001)
T3090 144:395.125 - 0.019ms returns 0x00
T3090 144:395.139 JLINK_ReadReg(R0)
T3090 144:395.151 - 0.018ms returns 0x00000000
T3090 144:395.557 JLINK_HasError()
T3090 144:395.577 JLINK_WriteReg(R0, 0x00000000)
T3090 144:395.591 - 0.020ms returns 0
T3090 144:395.605 JLINK_WriteReg(R1, 0x00B71B00)
T3090 144:395.618 - 0.019ms returns 0
T3090 144:395.631 JLINK_WriteReg(R2, 0x00000001)
T3090 144:395.644 - 0.019ms returns 0
T3090 144:395.657 JLINK_WriteReg(R3, 0x00000000)
T3090 144:395.670 - 0.018ms returns 0
T3090 144:395.683 JLINK_WriteReg(R4, 0x00000000)
T3090 144:395.696 - 0.018ms returns 0
T3090 144:395.709 JLINK_WriteReg(R5, 0x00000000)
T3090 144:395.721 - 0.018ms returns 0
T3090 144:395.734 JLINK_WriteReg(R6, 0x00000000)
T3090 144:395.747 - 0.019ms returns 0
T3090 144:395.760 JLINK_WriteReg(R7, 0x00000000)
T3090 144:395.773 - 0.018ms returns 0
T3090 144:395.786 JLINK_WriteReg(R8, 0x00000000)
T3090 144:395.799 - 0.018ms returns 0
T3090 144:395.812 JLINK_WriteReg(R9, 0x20000148)
T3090 144:395.825 - 0.019ms returns 0
T3090 144:395.838 JLINK_WriteReg(R10, 0x00000000)
T3090 144:395.850 - 0.019ms returns 0
T3090 144:395.864 JLINK_WriteReg(R11, 0x00000000)
T3090 144:395.876 - 0.018ms returns 0
T3090 144:395.889 JLINK_WriteReg(R12, 0x00000000)
T3090 144:395.902 - 0.018ms returns 0
T3090 144:395.915 JLINK_WriteReg(R13 (SP), 0x20001000)
T3090 144:395.928 - 0.019ms returns 0
T3090 144:395.941 JLINK_WriteReg(R14, 0x20000001)
T3090 144:395.954 - 0.019ms returns 0
T3090 144:395.967 JLINK_WriteReg(R15 (PC), 0x20000040)
T3090 144:395.980 - 0.018ms returns 0
T3090 144:395.993 JLINK_WriteReg(XPSR, 0x01000000)
T3090 144:396.006 - 0.018ms returns 0
T3090 144:396.019 JLINK_WriteReg(MSP, 0x20001000)
T3090 144:396.031 - 0.018ms returns 0
T3090 144:396.044 JLINK_WriteReg(PSP, 0x20001000)
T3090 144:396.059 - 0.020ms returns 0
T3090 144:396.072 JLINK_WriteReg(CFBP, 0x00000000)
T3090 144:396.085 - 0.018ms returns 0
T3090 144:396.098 JLINK_SetBPEx(Addr = 0x20000000, Type = 0xFFFFFFF2)
T3090 144:396.111 - 0.019ms returns 0x00000002
T3090 144:396.125 JLINK_Go()
T3090 144:396.141   CPU_ReadMem(4 bytes @ 0xE0001000)
T3090 144:396.400   CPU_WriteMem(4 bytes @ 0xE0001000)
T3090 144:398.346 - 2.232ms
T3090 144:398.366 JLINK_IsHalted()
T3090 144:431.499 - 33.148ms returns FALSE
T3090 144:431.552 JLINK_HasError()
T3090 144:447.693 JLINK_IsHalted()
T3090 144:449.807   CPU_ReadMem(2 bytes @ 0x20000000)
T3090 144:450.204 - 2.525ms returns TRUE
T3090 144:450.229 JLINK_ReadReg(R15 (PC))
T3090 144:450.260 - 0.055ms returns 0x20000000
T3090 144:450.292 JLINK_ClrBPEx(BPHandle = 0x00000002)
T3090 144:450.338 - 0.065ms returns 0x00
T3090 144:450.365 JLINK_ReadReg(R0)
T3090 144:450.397 - 0.038ms returns 0x00000000
T3090 144:502.841 JLINK_HasError()
T3090 144:502.880 JLINK_WriteReg(R0, 0x00000001)
T3090 144:502.898 - 0.023ms returns 0
T3090 144:502.911 JLINK_WriteReg(R1, 0x00B71B00)
T3090 144:502.923 - 0.018ms returns 0
T3090 144:502.936 JLINK_WriteReg(R2, 0x00000001)
T3090 144:502.948 - 0.017ms returns 0
T3090 144:502.960 JLINK_WriteReg(R3, 0x00000000)
T3090 144:503.028 - 0.074ms returns 0
T3090 144:503.041 JLINK_WriteReg(R4, 0x00000000)
T3090 144:503.053 - 0.017ms returns 0
T3090 144:503.066 JLINK_WriteReg(R5, 0x00000000)
T3090 144:503.077 - 0.017ms returns 0
T3090 144:503.089 JLINK_WriteReg(R6, 0x00000000)
T3090 144:503.101 - 0.017ms returns 0
T3090 144:503.113 JLINK_WriteReg(R7, 0x00000000)
T3090 144:503.125 - 0.017ms returns 0
T3090 144:503.138 JLINK_WriteReg(R8, 0x00000000)
T3090 144:503.149 - 0.017ms returns 0
T3090 144:503.162 JLINK_WriteReg(R9, 0x20000148)
T3090 144:503.173 - 0.017ms returns 0
T3090 144:503.185 JLINK_WriteReg(R10, 0x00000000)
T3090 144:503.197 - 0.017ms returns 0
T3090 144:503.210 JLINK_WriteReg(R11, 0x00000000)
T3090 144:503.222 - 0.018ms returns 0
T3090 144:503.234 JLINK_WriteReg(R12, 0x00000000)
T3090 144:503.246 - 0.017ms returns 0
T3090 144:503.258 JLINK_WriteReg(R13 (SP), 0x20001000)
T3090 144:503.271 - 0.018ms returns 0
T3090 144:503.283 JLINK_WriteReg(R14, 0x20000001)
T3090 144:503.295 - 0.017ms returns 0
T3090 144:503.307 JLINK_WriteReg(R15 (PC), 0x2000003C)
T3090 144:503.319 - 0.017ms returns 0
T3090 144:503.331 JLINK_WriteReg(XPSR, 0x01000000)
T3090 144:503.343 - 0.017ms returns 0
T3090 144:503.355 JLINK_WriteReg(MSP, 0x20001000)
T3090 144:503.367 - 0.017ms returns 0
T3090 144:503.380 JLINK_WriteReg(PSP, 0x20001000)
T3090 144:503.392 - 0.018ms returns 0
T3090 144:503.404 JLINK_WriteReg(CFBP, 0x00000000)
T3090 144:503.437 - 0.038ms returns 0
T3090 144:503.450 JLINK_SetBPEx(Addr = 0x20000000, Type = 0xFFFFFFF2)
T3090 144:503.464 - 0.020ms returns 0x00000003
T3090 144:503.477 JLINK_Go()
T3090 144:503.498   CPU_ReadMem(4 bytes @ 0xE0001000)
T3090 144:503.974   CPU_WriteMem(4 bytes @ 0xE0001000)
T3090 144:506.588 - 3.151ms
T3090 144:506.639 JLINK_IsHalted()
T3090 144:509.255   CPU_ReadMem(2 bytes @ 0x20000000)
T3090 144:509.772 - 3.149ms returns TRUE
T3090 144:509.803 JLINK_ReadReg(R15 (PC))
T3090 144:509.839 - 0.042ms returns 0x20000000
T3090 144:509.853 JLINK_ClrBPEx(BPHandle = 0x00000003)
T3090 144:509.867 - 0.033ms returns 0x00
T3090 144:509.893 JLINK_ReadReg(R0)
T3090 144:509.925 - 0.037ms returns 0x00000000
T3090 144:515.886 JLINK_WriteMem(0x20000000, 0x14C Bytes, ...)
T3090 144:515.913   Data:  00 BE 0A E0 0D 78 2D 06 68 40 08 24 40 00 00 D3 ...
T3090 144:515.952   CPU_WriteMem(332 bytes @ 0x20000000)
T3090 144:517.496 - 1.624ms returns 0x14C
T3090 144:517.543 JLINK_HasError()
T3090 144:517.559 JLINK_WriteReg(R0, 0x00000000)
T3090 144:517.575 - 0.022ms returns 0
T3090 144:517.589 JLINK_WriteReg(R1, 0x00B71B00)
T3090 144:517.601 - 0.019ms returns 0
T3090 144:517.615 JLINK_WriteReg(R2, 0x00000002)
T3090 144:517.628 - 0.019ms returns 0
T3090 144:517.641 JLINK_WriteReg(R3, 0x00000000)
T3090 144:517.654 - 0.019ms returns 0
T3090 144:517.667 JLINK_WriteReg(R4, 0x00000000)
T3090 144:517.679 - 0.019ms returns 0
T3090 144:517.693 JLINK_WriteReg(R5, 0x00000000)
T3090 144:517.705 - 0.018ms returns 0
T3090 144:517.718 JLINK_WriteReg(R6, 0x00000000)
T3090 144:517.731 - 0.018ms returns 0
T3090 144:517.744 JLINK_WriteReg(R7, 0x00000000)
T3090 144:517.757 - 0.019ms returns 0
T3090 144:517.770 JLINK_WriteReg(R8, 0x00000000)
T3090 144:517.782 - 0.019ms returns 0
T3090 144:517.796 JLINK_WriteReg(R9, 0x20000148)
T3090 144:517.808 - 0.018ms returns 0
T3090 144:517.821 JLINK_WriteReg(R10, 0x00000000)
T3090 144:517.834 - 0.019ms returns 0
T3090 144:517.847 JLINK_WriteReg(R11, 0x00000000)
T3090 144:517.860 - 0.018ms returns 0
T3090 144:517.873 JLINK_WriteReg(R12, 0x00000000)
T3090 144:517.886 - 0.047ms returns 0
T3090 144:517.927 JLINK_WriteReg(R13 (SP), 0x20001000)
T3090 144:517.941 - 0.019ms returns 0
T3090 144:517.955 JLINK_WriteReg(R14, 0x20000001)
T3090 144:517.969 - 0.019ms returns 0
T3090 144:517.982 JLINK_WriteReg(R15 (PC), 0x20000038)
T3090 144:517.995 - 0.019ms returns 0
T3090 144:518.008 JLINK_WriteReg(XPSR, 0x01000000)
T3090 144:518.021 - 0.019ms returns 0
T3090 144:518.034 JLINK_WriteReg(MSP, 0x20001000)
T3090 144:518.047 - 0.022ms returns 0
T3090 144:518.066 JLINK_WriteReg(PSP, 0x20001000)
T3090 144:518.080 - 0.019ms returns 0
T3090 144:518.093 JLINK_WriteReg(CFBP, 0x00000000)
T3090 144:518.106 - 0.019ms returns 0
T3090 144:518.120 JLINK_SetBPEx(Addr = 0x20000000, Type = 0xFFFFFFF2)
T3090 144:518.136   CPU_ReadMem(4 bytes @ 0x20000000)
T3090 144:518.465   CPU_WriteMem(4 bytes @ 0x20000000)
T3090 144:518.858   CPU_ReadMem(4 bytes @ 0x20000000)
T3090 144:519.161   CPU_WriteMem(4 bytes @ 0x20000000)
T3090 144:519.464   CPU_ReadMem(2 bytes @ 0x20000000)
T3090 144:519.723 - 1.612ms returns 0x00000004
T3090 144:519.740 JLINK_Go()
T3090 144:519.756   CPU_WriteMem(2 bytes @ 0x20000000)
T3090 144:520.000   CPU_ReadMem(4 bytes @ 0xE0001000)
T3090 144:520.245   CPU_WriteMem(4 bytes @ 0xE0001000)
T3090 144:522.242 - 2.512ms
T3090 144:522.262 JLINK_IsHalted()
T3090 144:524.088   CPU_ReadMem(2 bytes @ 0x20000000)
T3090 144:524.396 - 2.142ms returns TRUE
T3090 144:524.413 JLINK_ReadReg(R15 (PC))
T3090 144:524.427 - 0.020ms returns 0x20000000
T3090 144:524.441 JLINK_ClrBPEx(BPHandle = 0x00000004)
T3090 144:524.454 - 0.019ms returns 0x00
T3090 144:524.468 JLINK_ReadReg(R0)
T3090 144:524.481 - 0.019ms returns 0x00000000
T3090 144:524.701 JLINK_WriteMem(0x2000014C, 0x200 Bytes, ...)
T3090 144:524.718   Data:  F8 0C 00 20 65 01 00 00 73 01 00 00 75 01 00 00 ...
T3090 144:524.742   CPU_WriteMem(512 bytes @ 0x2000014C)
T3090 144:526.723 - 2.030ms returns 0x200
T3090 144:526.739 JLINK_HasError()
T3090 144:526.753 JLINK_WriteReg(R0, 0x00000000)
T3090 144:526.766 - 0.019ms returns 0
T3090 144:526.779 JLINK_WriteReg(R1, 0x00000200)
T3090 144:526.791 - 0.018ms returns 0
T3090 144:526.803 JLINK_WriteReg(R2, 0x2000014C)
T3090 144:526.816 - 0.018ms returns 0
T3090 144:526.828 JLINK_WriteReg(R3, 0x00000000)
T3090 144:526.840 - 0.018ms returns 0
T3090 144:526.853 JLINK_WriteReg(R4, 0x00000000)
T3090 144:526.865 - 0.017ms returns 0
T3090 144:526.877 JLINK_WriteReg(R5, 0x00000000)
T3090 144:526.890 - 0.018ms returns 0
T3090 144:526.902 JLINK_WriteReg(R6, 0x00000000)
T3090 144:526.914 - 0.018ms returns 0
T3090 144:526.927 JLINK_WriteReg(R7, 0x00000000)
T3090 144:526.939 - 0.018ms returns 0
T3090 144:526.951 JLINK_WriteReg(R8, 0x00000000)
T3090 144:526.963 - 0.017ms returns 0
T3090 144:526.976 JLINK_WriteReg(R9, 0x20000148)
T3090 144:526.988 - 0.018ms returns 0
T3090 144:527.001 JLINK_WriteReg(R10, 0x00000000)
T3090 144:527.013 - 0.018ms returns 0
T3090 144:527.025 JLINK_WriteReg(R11, 0x00000000)
T3090 144:527.037 - 0.018ms returns 0
T3090 144:527.050 JLINK_WriteReg(R12, 0x00000000)
T3090 144:527.062 - 0.018ms returns 0
T3090 144:527.094 JLINK_WriteReg(R13 (SP), 0x20001000)
T3090 144:527.107 - 0.019ms returns 0
T3090 144:527.120 JLINK_WriteReg(R14, 0x20000001)
T3090 144:527.146 - 0.031ms returns 0
T3090 144:527.158 JLINK_WriteReg(R15 (PC), 0x200000D8)
T3090 144:527.171 - 0.018ms returns 0
T3090 144:527.183 JLINK_WriteReg(XPSR, 0x01000000)
T3090 144:527.195 - 0.018ms returns 0
T3090 144:527.208 JLINK_WriteReg(MSP, 0x20001000)
T3090 144:527.220 - 0.018ms returns 0
T3090 144:527.233 JLINK_WriteReg(PSP, 0x20001000)
T3090 144:527.245 - 0.018ms returns 0
T3090 144:527.258 JLINK_WriteReg(CFBP, 0x00000000)
T3090 144:527.270 - 0.018ms returns 0
T3090 144:527.283 JLINK_SetBPEx(Addr = 0x20000000, Type = 0xFFFFFFF2)
T3090 144:527.295 - 0.018ms returns 0x00000005
T3090 144:527.308 JLINK_Go()
T3090 144:527.323   CPU_ReadMem(4 bytes @ 0xE0001000)
T3090 144:527.568   CPU_WriteMem(4 bytes @ 0xE0001000)
T3090 144:529.617 - 2.317ms
T3090 144:529.633 JLINK_IsHalted()
T3090 144:529.948 - 0.322ms returns FALSE
T3090 144:529.963 JLINK_HasError()
T3090 144:539.105 JLINK_IsHalted()
T3090 144:540.870   CPU_ReadMem(2 bytes @ 0x20000000)
T3090 144:541.119 - 2.023ms returns TRUE
T3090 144:541.137 JLINK_ReadReg(R15 (PC))
T3090 144:541.152 - 0.020ms returns 0x20000000
T3090 144:541.166 JLINK_ClrBPEx(BPHandle = 0x00000005)
T3090 144:541.179 - 0.019ms returns 0x00
T3090 144:541.193 JLINK_ReadReg(R0)
T3090 144:541.206 - 0.022ms returns 0x00000000
T3090 144:541.540 JLINK_WriteMem(0x2000014C, 0x200 Bytes, ...)
T3090 144:541.558   Data:  9C 41 12 DA 00 25 2C 46 2D 1A 8C 41 02 DA 00 F0 ...
T3090 144:541.582   CPU_WriteMem(512 bytes @ 0x2000014C)
T3090 144:543.532 - 2.000ms returns 0x200
T3090 144:543.550 JLINK_HasError()
T3090 144:543.564 JLINK_WriteReg(R0, 0x00000200)
T3090 144:543.578 - 0.020ms returns 0
T3090 144:543.592 JLINK_WriteReg(R1, 0x00000200)
T3090 144:543.605 - 0.019ms returns 0
T3090 144:543.618 JLINK_WriteReg(R2, 0x2000014C)
T3090 144:543.631 - 0.019ms returns 0
T3090 144:543.644 JLINK_WriteReg(R3, 0x00000000)
T3090 144:543.657 - 0.019ms returns 0
T3090 144:543.670 JLINK_WriteReg(R4, 0x00000000)
T3090 144:543.683 - 0.019ms returns 0
T3090 144:543.697 JLINK_WriteReg(R5, 0x00000000)
T3090 144:543.709 - 0.018ms returns 0
T3090 144:543.723 JLINK_WriteReg(R6, 0x00000000)
T3090 144:543.735 - 0.018ms returns 0
T3090 144:543.748 JLINK_WriteReg(R7, 0x00000000)
T3090 144:543.761 - 0.019ms returns 0
T3090 144:543.774 JLINK_WriteReg(R8, 0x00000000)
T3090 144:543.787 - 0.019ms returns 0
T3090 144:543.801 JLINK_WriteReg(R9, 0x20000148)
T3090 144:543.813 - 0.018ms returns 0
T3090 144:543.827 JLINK_WriteReg(R10, 0x00000000)
T3090 144:543.839 - 0.018ms returns 0
T3090 144:543.852 JLINK_WriteReg(R11, 0x00000000)
T3090 144:543.865 - 0.019ms returns 0
T3090 144:543.878 JLINK_WriteReg(R12, 0x00000000)
T3090 144:543.891 - 0.019ms returns 0
T3090 144:543.904 JLINK_WriteReg(R13 (SP), 0x20001000)
T3090 144:543.917 - 0.019ms returns 0
T3090 144:543.930 JLINK_WriteReg(R14, 0x20000001)
T3090 144:543.943 - 0.018ms returns 0
T3090 144:543.956 JLINK_WriteReg(R15 (PC), 0x200000D8)
T3090 144:543.969 - 0.019ms returns 0
T3090 144:543.982 JLINK_WriteReg(XPSR, 0x01000000)
T3090 144:543.995 - 0.019ms returns 0
T3090 144:544.008 JLINK_WriteReg(MSP, 0x20001000)
T3090 144:544.021 - 0.018ms returns 0
T3090 144:544.034 JLINK_WriteReg(PSP, 0x20001000)
T3090 144:544.047 - 0.019ms returns 0
T3090 144:544.060 JLINK_WriteReg(CFBP, 0x00000000)
T3090 144:544.073 - 0.019ms returns 0
T3090 144:544.086 JLINK_SetBPEx(Addr = 0x20000000, Type = 0xFFFFFFF2)
T3090 144:544.100 - 0.019ms returns 0x00000006
T3090 144:544.113 JLINK_Go()
T3090 144:544.131   CPU_ReadMem(4 bytes @ 0xE0001000)
T3090 144:544.438   CPU_WriteMem(4 bytes @ 0xE0001000)
T3090 144:546.490 - 2.387ms
T3090 144:546.510 JLINK_IsHalted()
T3090 144:546.765 - 0.263ms returns FALSE
T3090 144:546.782 JLINK_HasError()
T3090 144:548.812 JLINK_IsHalted()
T3090 144:549.091 - 0.289ms returns FALSE
T3090 144:549.109 JLINK_HasError()
T3090 144:550.818 JLINK_IsHalted()
T3090 144:551.272 - 0.463ms returns FALSE
T3090 144:551.288 JLINK_HasError()
T3090 144:553.285 JLINK_IsHalted()
T3090 144:555.258   CPU_ReadMem(2 bytes @ 0x20000000)
T3090 144:555.526 - 2.265ms returns TRUE
T3090 144:555.558 JLINK_ReadReg(R15 (PC))
T3090 144:555.573 - 0.020ms returns 0x20000000
T3090 144:555.586 JLINK_ClrBPEx(BPHandle = 0x00000006)
T3090 144:555.599 - 0.019ms returns 0x00
T3090 144:555.612 JLINK_ReadReg(R0)
T3090 144:555.624 - 0.018ms returns 0x00000000
T3090 144:555.994 JLINK_WriteMem(0x2000014C, 0x200 Bytes, ...)
T3090 144:556.010   Data:  02 BD 70 47 70 47 70 47 F0 B5 F9 4D 0C 09 1E 09 ...
T3090 144:556.033   CPU_WriteMem(512 bytes @ 0x2000014C)
T3090 144:558.285 - 2.319ms returns 0x200
T3090 144:558.322 JLINK_HasError()
T3090 144:558.335 JLINK_WriteReg(R0, 0x00000400)
T3090 144:558.350 - 0.020ms returns 0
T3090 144:558.363 JLINK_WriteReg(R1, 0x00000200)
T3090 144:558.376 - 0.018ms returns 0
T3090 144:558.388 JLINK_WriteReg(R2, 0x2000014C)
T3090 144:558.401 - 0.018ms returns 0
T3090 144:558.413 JLINK_WriteReg(R3, 0x00000000)
T3090 144:558.426 - 0.018ms returns 0
T3090 144:558.438 JLINK_WriteReg(R4, 0x00000000)
T3090 144:558.450 - 0.018ms returns 0
T3090 144:558.463 JLINK_WriteReg(R5, 0x00000000)
T3090 144:558.474 - 0.017ms returns 0
T3090 144:558.487 JLINK_WriteReg(R6, 0x00000000)
T3090 144:558.499 - 0.018ms returns 0
T3090 144:558.511 JLINK_WriteReg(R7, 0x00000000)
T3090 144:558.548 - 0.045ms returns 0
T3090 144:558.564 JLINK_WriteReg(R8, 0x00000000)
T3090 144:558.577 - 0.035ms returns 0
T3090 144:558.606 JLINK_WriteReg(R9, 0x20000148)
T3090 144:558.618 - 0.017ms returns 0
T3090 144:558.631 JLINK_WriteReg(R10, 0x00000000)
T3090 144:558.643 - 0.017ms returns 0
T3090 144:558.655 JLINK_WriteReg(R11, 0x00000000)
T3090 144:558.667 - 0.018ms returns 0
T3090 144:558.680 JLINK_WriteReg(R12, 0x00000000)
T3090 144:558.692 - 0.018ms returns 0
T3090 144:558.705 JLINK_WriteReg(R13 (SP), 0x20001000)
T3090 144:558.717 - 0.018ms returns 0
T3090 144:558.730 JLINK_WriteReg(R14, 0x20000001)
T3090 144:558.742 - 0.018ms returns 0
T3090 144:558.755 JLINK_WriteReg(R15 (PC), 0x200000D8)
T3090 144:558.767 - 0.018ms returns 0
T3090 144:558.779 JLINK_WriteReg(XPSR, 0x01000000)
T3090 144:558.792 - 0.018ms returns 0
T3090 144:558.804 JLINK_WriteReg(MSP, 0x20001000)
T3090 144:558.816 - 0.017ms returns 0
T3090 144:558.829 JLINK_WriteReg(PSP, 0x20001000)
T3090 144:558.841 - 0.018ms returns 0
T3090 144:558.854 JLINK_WriteReg(CFBP, 0x00000000)
T3090 144:558.866 - 0.018ms returns 0
T3090 144:558.879 JLINK_SetBPEx(Addr = 0x20000000, Type = 0xFFFFFFF2)
T3090 144:558.892 - 0.019ms returns 0x00000007
T3090 144:558.905 JLINK_Go()
T3090 144:558.921   CPU_ReadMem(4 bytes @ 0xE0001000)
T3090 144:559.283   CPU_WriteMem(4 bytes @ 0xE0001000)
T3090 144:561.571 - 2.677ms
T3090 144:561.593 JLINK_IsHalted()
T3090 144:561.897 - 0.311ms returns FALSE
T3090 144:561.913 JLINK_HasError()
T3090 144:563.938 JLINK_IsHalted()
T3090 144:564.392 - 0.462ms returns FALSE
T3090 144:564.407 JLINK_HasError()
T3090 144:566.390 JLINK_IsHalted()
T3090 144:566.831 - 0.449ms returns FALSE
T3090 144:566.847 JLINK_HasError()
T3090 144:568.431 JLINK_IsHalted()
T3090 144:570.450   CPU_ReadMem(2 bytes @ 0x20000000)
T3090 144:570.720 - 2.298ms returns TRUE
T3090 144:570.740 JLINK_ReadReg(R15 (PC))
T3090 144:570.761 - 0.027ms returns 0x20000000
T3090 144:570.774 JLINK_ClrBPEx(BPHandle = 0x00000007)
T3090 144:570.786 - 0.018ms returns 0x00
T3090 144:570.799 JLINK_ReadReg(R0)
T3090 144:570.811 - 0.018ms returns 0x00000000
T3090 144:571.158 JLINK_WriteMem(0x2000014C, 0x200 Bytes, ...)
T3090 144:571.174   Data:  64 1B 04 94 06 D2 02 9C 03 9D 64 1C 00 26 75 41 ...
T3090 144:571.196   CPU_WriteMem(512 bytes @ 0x2000014C)
T3090 144:573.265 - 2.161ms returns 0x200
T3090 144:573.328 JLINK_HasError()
T3090 144:573.342 JLINK_WriteReg(R0, 0x00000600)
T3090 144:573.356 - 0.020ms returns 0
T3090 144:573.369 JLINK_WriteReg(R1, 0x00000200)
T3090 144:573.382 - 0.018ms returns 0
T3090 144:573.395 JLINK_WriteReg(R2, 0x2000014C)
T3090 144:573.407 - 0.018ms returns 0
T3090 144:573.419 JLINK_WriteReg(R3, 0x00000000)
T3090 144:573.432 - 0.018ms returns 0
T3090 144:573.444 JLINK_WriteReg(R4, 0x00000000)
T3090 144:573.456 - 0.018ms returns 0
T3090 144:573.469 JLINK_WriteReg(R5, 0x00000000)
T3090 144:573.481 - 0.018ms returns 0
T3090 144:573.493 JLINK_WriteReg(R6, 0x00000000)
T3090 144:573.505 - 0.017ms returns 0
T3090 144:573.518 JLINK_WriteReg(R7, 0x00000000)
T3090 144:573.530 - 0.018ms returns 0
T3090 144:573.543 JLINK_WriteReg(R8, 0x00000000)
T3090 144:573.555 - 0.018ms returns 0
T3090 144:573.567 JLINK_WriteReg(R9, 0x20000148)
T3090 144:573.579 - 0.018ms returns 0
T3090 144:573.592 JLINK_WriteReg(R10, 0x00000000)
T3090 144:573.604 - 0.017ms returns 0
T3090 144:573.617 JLINK_WriteReg(R11, 0x00000000)
T3090 144:573.629 - 0.018ms returns 0
T3090 144:573.641 JLINK_WriteReg(R12, 0x00000000)
T3090 144:573.655 - 0.020ms returns 0
T3090 144:573.669 JLINK_WriteReg(R13 (SP), 0x20001000)
T3090 144:573.682 - 0.019ms returns 0
T3090 144:573.695 JLINK_WriteReg(R14, 0x20000001)
T3090 144:573.707 - 0.018ms returns 0
T3090 144:573.719 JLINK_WriteReg(R15 (PC), 0x200000D8)
T3090 144:573.732 - 0.018ms returns 0
T3090 144:573.745 JLINK_WriteReg(XPSR, 0x01000000)
T3090 144:573.757 - 0.018ms returns 0
T3090 144:573.770 JLINK_WriteReg(MSP, 0x20001000)
T3090 144:573.782 - 0.018ms returns 0
T3090 144:573.795 JLINK_WriteReg(PSP, 0x20001000)
T3090 144:573.863 - 0.074ms returns 0
T3090 144:573.876 JLINK_WriteReg(CFBP, 0x00000000)
T3090 144:573.888 - 0.018ms returns 0
T3090 144:573.904 JLINK_SetBPEx(Addr = 0x20000000, Type = 0xFFFFFFF2)
T3090 144:573.938 - 0.039ms returns 0x00000008
T3090 144:573.951 JLINK_Go()
T3090 144:573.984   CPU_ReadMem(4 bytes @ 0xE0001000)
T3090 144:574.279   CPU_WriteMem(4 bytes @ 0xE0001000)
T3090 144:576.525 - 2.584ms
T3090 144:576.545 JLINK_IsHalted()
T3090 144:576.849 - 0.315ms returns FALSE
T3090 144:576.868 JLINK_HasError()
T3090 144:578.610 JLINK_IsHalted()
T3090 144:578.981 - 0.381ms returns FALSE
T3090 144:579.000 JLINK_HasError()
T3090 144:580.604 JLINK_IsHalted()
T3090 144:581.211 - 0.631ms returns FALSE
T3090 144:581.245 JLINK_HasError()
T3090 144:582.493 JLINK_IsHalted()
T3090 144:584.577   CPU_ReadMem(2 bytes @ 0x20000000)
T3090 144:584.972 - 2.498ms returns TRUE
T3090 144:585.003 JLINK_ReadReg(R15 (PC))
T3090 144:585.020 - 0.023ms returns 0x20000000
T3090 144:585.034 JLINK_ClrBPEx(BPHandle = 0x00000008)
T3090 144:585.047 - 0.019ms returns 0x00
T3090 144:585.061 JLINK_ReadReg(R0)
T3090 144:585.074 - 0.034ms returns 0x00000000
T3090 144:585.423 JLINK_WriteMem(0x2000014C, 0x200 Bytes, ...)
T3090 144:585.440   Data:  00 00 F8 7F 11 48 59 40 01 43 C0 12 41 40 00 20 ...
T3090 144:585.463   CPU_WriteMem(512 bytes @ 0x2000014C)
T3090 144:587.499 - 2.103ms returns 0x200
T3090 144:587.536 JLINK_HasError()
T3090 144:587.593 JLINK_WriteReg(R0, 0x00000800)
T3090 144:587.608 - 0.021ms returns 0
T3090 144:587.635 JLINK_WriteReg(R1, 0x00000200)
T3090 144:587.648 - 0.018ms returns 0
T3090 144:587.660 JLINK_WriteReg(R2, 0x2000014C)
T3090 144:587.673 - 0.018ms returns 0
T3090 144:587.685 JLINK_WriteReg(R3, 0x00000000)
T3090 144:587.698 - 0.018ms returns 0
T3090 144:587.710 JLINK_WriteReg(R4, 0x00000000)
T3090 144:587.723 - 0.018ms returns 0
T3090 144:587.735 JLINK_WriteReg(R5, 0x00000000)
T3090 144:587.748 - 0.018ms returns 0
T3090 144:587.760 JLINK_WriteReg(R6, 0x00000000)
T3090 144:587.773 - 0.018ms returns 0
T3090 144:587.785 JLINK_WriteReg(R7, 0x00000000)
T3090 144:587.798 - 0.018ms returns 0
T3090 144:587.810 JLINK_WriteReg(R8, 0x00000000)
T3090 144:587.822 - 0.018ms returns 0
T3090 144:587.835 JLINK_WriteReg(R9, 0x20000148)
T3090 144:587.848 - 0.018ms returns 0
T3090 144:587.860 JLINK_WriteReg(R10, 0x00000000)
T3090 144:587.873 - 0.018ms returns 0
T3090 144:587.885 JLINK_WriteReg(R11, 0x00000000)
T3090 144:587.898 - 0.018ms returns 0
T3090 144:587.911 JLINK_WriteReg(R12, 0x00000000)
T3090 144:587.942 - 0.037ms returns 0
T3090 144:587.956 JLINK_WriteReg(R13 (SP), 0x20001000)
T3090 144:587.969 - 0.019ms returns 0
T3090 144:587.982 JLINK_WriteReg(R14, 0x20000001)
T3090 144:588.010 - 0.034ms returns 0
T3090 144:588.023 JLINK_WriteReg(R15 (PC), 0x200000D8)
T3090 144:588.035 - 0.018ms returns 0
T3090 144:588.048 JLINK_WriteReg(XPSR, 0x01000000)
T3090 144:588.060 - 0.018ms returns 0
T3090 144:588.073 JLINK_WriteReg(MSP, 0x20001000)
T3090 144:588.085 - 0.018ms returns 0
T3090 144:588.097 JLINK_WriteReg(PSP, 0x20001000)
T3090 144:588.110 - 0.018ms returns 0
T3090 144:588.122 JLINK_WriteReg(CFBP, 0x00000000)
T3090 144:588.135 - 0.018ms returns 0
T3090 144:588.147 JLINK_SetBPEx(Addr = 0x20000000, Type = 0xFFFFFFF2)
T3090 144:588.160 - 0.019ms returns 0x00000009
T3090 144:588.173 JLINK_Go()
T3090 144:588.189   CPU_ReadMem(4 bytes @ 0xE0001000)
T3090 144:588.436   CPU_WriteMem(4 bytes @ 0xE0001000)
T3090 144:590.594 - 2.429ms
T3090 144:590.611 JLINK_IsHalted()
T3090 144:590.894 - 0.291ms returns FALSE
T3090 144:590.910 JLINK_HasError()
T3090 144:593.937 JLINK_IsHalted()
T3090 144:594.291 - 0.362ms returns FALSE
T3090 144:594.306 JLINK_HasError()
T3090 144:595.942 JLINK_IsHalted()
T3090 144:596.309 - 0.375ms returns FALSE
T3090 144:596.325 JLINK_HasError()
T3090 144:598.333 JLINK_IsHalted()
T3090 144:600.458   CPU_ReadMem(2 bytes @ 0x20000000)
T3090 144:600.776 - 2.452ms returns TRUE
T3090 144:600.794 JLINK_ReadReg(R15 (PC))
T3090 144:600.812 - 0.025ms returns 0x20000000
T3090 144:600.827 JLINK_ClrBPEx(BPHandle = 0x00000009)
T3090 144:600.840 - 0.018ms returns 0x00
T3090 144:600.853 JLINK_ReadReg(R0)
T3090 144:600.865 - 0.018ms returns 0x00000000
T3090 144:601.245 JLINK_WriteMem(0x2000014C, 0x200 Bytes, ...)
T3090 144:601.261   Data:  25 40 71 D0 24 01 21 42 FB D0 FF 24 AD 19 A4 04 ...
T3090 144:601.285   CPU_WriteMem(512 bytes @ 0x2000014C)
T3090 144:603.408 - 2.223ms returns 0x200
T3090 144:603.476 JLINK_HasError()
T3090 144:603.489 JLINK_WriteReg(R0, 0x00000A00)
T3090 144:603.503 - 0.019ms returns 0
T3090 144:603.515 JLINK_WriteReg(R1, 0x00000200)
T3090 144:603.527 - 0.018ms returns 0
T3090 144:603.540 JLINK_WriteReg(R2, 0x2000014C)
T3090 144:603.552 - 0.017ms returns 0
T3090 144:603.564 JLINK_WriteReg(R3, 0x00000000)
T3090 144:603.576 - 0.018ms returns 0
T3090 144:603.589 JLINK_WriteReg(R4, 0x00000000)
T3090 144:603.601 - 0.018ms returns 0
T3090 144:603.613 JLINK_WriteReg(R5, 0x00000000)
T3090 144:603.625 - 0.017ms returns 0
T3090 144:603.638 JLINK_WriteReg(R6, 0x00000000)
T3090 144:603.650 - 0.017ms returns 0
T3090 144:603.662 JLINK_WriteReg(R7, 0x00000000)
T3090 144:603.674 - 0.017ms returns 0
T3090 144:603.686 JLINK_WriteReg(R8, 0x00000000)
T3090 144:603.699 - 0.018ms returns 0
T3090 144:603.711 JLINK_WriteReg(R9, 0x20000148)
T3090 144:603.723 - 0.017ms returns 0
T3090 144:603.736 JLINK_WriteReg(R10, 0x00000000)
T3090 144:603.748 - 0.017ms returns 0
T3090 144:603.760 JLINK_WriteReg(R11, 0x00000000)
T3090 144:603.772 - 0.018ms returns 0
T3090 144:603.784 JLINK_WriteReg(R12, 0x00000000)
T3090 144:603.797 - 0.018ms returns 0
T3090 144:603.809 JLINK_WriteReg(R13 (SP), 0x20001000)
T3090 144:603.821 - 0.018ms returns 0
T3090 144:603.834 JLINK_WriteReg(R14, 0x20000001)
T3090 144:603.846 - 0.017ms returns 0
T3090 144:603.858 JLINK_WriteReg(R15 (PC), 0x200000D8)
T3090 144:603.871 - 0.018ms returns 0
T3090 144:603.883 JLINK_WriteReg(XPSR, 0x01000000)
T3090 144:603.895 - 0.018ms returns 0
T3090 144:603.908 JLINK_WriteReg(MSP, 0x20001000)
T3090 144:603.920 - 0.017ms returns 0
T3090 144:603.932 JLINK_WriteReg(PSP, 0x20001000)
T3090 144:603.944 - 0.017ms returns 0
T3090 144:603.957 JLINK_WriteReg(CFBP, 0x00000000)
T3090 144:603.969 - 0.017ms returns 0
T3090 144:603.981 JLINK_SetBPEx(Addr = 0x20000000, Type = 0xFFFFFFF2)
T3090 144:603.994 - 0.018ms returns 0x0000000A
T3090 144:604.007 JLINK_Go()
T3090 144:604.022   CPU_ReadMem(4 bytes @ 0xE0001000)
T3090 144:604.332   CPU_WriteMem(4 bytes @ 0xE0001000)
T3090 144:606.620 - 2.624ms
T3090 144:606.640 JLINK_IsHalted()
T3090 144:606.979 - 0.350ms returns FALSE
T3090 144:606.998 JLINK_HasError()
T3090 144:608.099 JLINK_IsHalted()
T3090 144:608.495 - 0.407ms returns FALSE
T3090 144:608.515 JLINK_HasError()
T3090 144:610.019 JLINK_IsHalted()
T3090 144:610.434 - 0.424ms returns FALSE
T3090 144:610.450 JLINK_HasError()
T3090 144:612.817 JLINK_IsHalted()
T3090 144:615.068   CPU_ReadMem(2 bytes @ 0x20000000)
T3090 144:615.517 - 2.730ms returns TRUE
T3090 144:615.567 JLINK_ReadReg(R15 (PC))
T3090 144:615.589 - 0.027ms returns 0x20000000
T3090 144:615.603 JLINK_ClrBPEx(BPHandle = 0x0000000A)
T3090 144:615.617 - 0.019ms returns 0x00
T3090 144:615.631 JLINK_ReadReg(R0)
T3090 144:615.644 - 0.019ms returns 0x00000000
T3090 144:616.116 JLINK_WriteMem(0x2000014C, 0x200 Bytes, ...)
T3090 144:616.159   Data:  C9 07 00 20 11 43 DD E7 00 20 06 49 DA E7 00 00 ...
T3090 144:616.187   CPU_WriteMem(512 bytes @ 0x2000014C)
T3090 144:618.339 - 2.274ms returns 0x200
T3090 144:618.406 JLINK_HasError()
T3090 144:618.421 JLINK_WriteReg(R0, 0x00000C00)
T3090 144:618.436 - 0.020ms returns 0
T3090 144:618.448 JLINK_WriteReg(R1, 0x00000200)
T3090 144:618.461 - 0.018ms returns 0
T3090 144:618.474 JLINK_WriteReg(R2, 0x2000014C)
T3090 144:618.486 - 0.017ms returns 0
T3090 144:618.498 JLINK_WriteReg(R3, 0x00000000)
T3090 144:618.510 - 0.018ms returns 0
T3090 144:618.523 JLINK_WriteReg(R4, 0x00000000)
T3090 144:618.535 - 0.018ms returns 0
T3090 144:618.551 JLINK_WriteReg(R5, 0x00000000)
T3090 144:618.566 - 0.020ms returns 0
T3090 144:618.578 JLINK_WriteReg(R6, 0x00000000)
T3090 144:618.590 - 0.017ms returns 0
T3090 144:618.603 JLINK_WriteReg(R7, 0x00000000)
T3090 144:618.615 - 0.017ms returns 0
T3090 144:618.627 JLINK_WriteReg(R8, 0x00000000)
T3090 144:618.639 - 0.018ms returns 0
T3090 144:618.652 JLINK_WriteReg(R9, 0x20000148)
T3090 144:618.664 - 0.018ms returns 0
T3090 144:618.676 JLINK_WriteReg(R10, 0x00000000)
T3090 144:618.688 - 0.017ms returns 0
T3090 144:618.701 JLINK_WriteReg(R11, 0x00000000)
T3090 144:618.713 - 0.018ms returns 0
T3090 144:618.726 JLINK_WriteReg(R12, 0x00000000)
T3090 144:618.738 - 0.018ms returns 0
T3090 144:618.751 JLINK_WriteReg(R13 (SP), 0x20001000)
T3090 144:618.764 - 0.018ms returns 0
T3090 144:618.776 JLINK_WriteReg(R14, 0x20000001)
T3090 144:618.788 - 0.018ms returns 0
T3090 144:618.801 JLINK_WriteReg(R15 (PC), 0x200000D8)
T3090 144:618.814 - 0.018ms returns 0
T3090 144:618.826 JLINK_WriteReg(XPSR, 0x01000000)
T3090 144:618.839 - 0.018ms returns 0
T3090 144:618.851 JLINK_WriteReg(MSP, 0x20001000)
T3090 144:618.863 - 0.018ms returns 0
T3090 144:618.876 JLINK_WriteReg(PSP, 0x20001000)
T3090 144:618.888 - 0.018ms returns 0
T3090 144:618.901 JLINK_WriteReg(CFBP, 0x00000000)
T3090 144:618.913 - 0.018ms returns 0
T3090 144:618.926 JLINK_SetBPEx(Addr = 0x20000000, Type = 0xFFFFFFF2)
T3090 144:618.939 - 0.019ms returns 0x0000000B
T3090 144:618.952 JLINK_Go()
T3090 144:618.969   CPU_ReadMem(4 bytes @ 0xE0001000)
T3090 144:619.303   CPU_WriteMem(4 bytes @ 0xE0001000)
T3090 144:621.593 - 2.652ms
T3090 144:621.613 JLINK_IsHalted()
T3090 144:621.863 - 0.276ms returns FALSE
T3090 144:621.912 JLINK_HasError()
T3090 144:623.410 JLINK_IsHalted()
T3090 144:623.766 - 0.364ms returns FALSE
T3090 144:623.781 JLINK_HasError()
T3090 144:626.167 JLINK_IsHalted()
T3090 144:626.973 - 0.866ms returns FALSE
T3090 144:627.047 JLINK_HasError()
T3090 144:628.412 JLINK_IsHalted()
T3090 144:630.668   CPU_ReadMem(2 bytes @ 0x20000000)
T3090 144:631.146 - 2.752ms returns TRUE
T3090 144:631.176 JLINK_ReadReg(R15 (PC))
T3090 144:631.194 - 0.024ms returns 0x20000000
T3090 144:631.207 JLINK_ClrBPEx(BPHandle = 0x0000000B)
T3090 144:631.221 - 0.019ms returns 0x00
T3090 144:631.235 JLINK_ReadReg(R0)
T3090 144:631.250 - 0.020ms returns 0x00000000
T3090 144:631.678 JLINK_WriteMem(0x2000014C, 0x200 Bytes, ...)
T3090 144:631.702   Data:  01 D1 40 00 40 08 A2 1A 03 D4 D0 40 40 42 00 28 ...
T3090 144:631.729   CPU_WriteMem(512 bytes @ 0x2000014C)
T3090 144:633.858 - 2.206ms returns 0x200
T3090 144:633.898 JLINK_HasError()
T3090 144:633.913 JLINK_WriteReg(R0, 0x00000E00)
T3090 144:633.931 - 0.024ms returns 0
T3090 144:633.944 JLINK_WriteReg(R1, 0x00000200)
T3090 144:633.956 - 0.018ms returns 0
T3090 144:633.969 JLINK_WriteReg(R2, 0x2000014C)
T3090 144:633.981 - 0.018ms returns 0
T3090 144:633.994 JLINK_WriteReg(R3, 0x00000000)
T3090 144:634.006 - 0.018ms returns 0
T3090 144:634.018 JLINK_WriteReg(R4, 0x00000000)
T3090 144:634.030 - 0.018ms returns 0
T3090 144:634.043 JLINK_WriteReg(R5, 0x00000000)
T3090 144:634.054 - 0.017ms returns 0
T3090 144:634.067 JLINK_WriteReg(R6, 0x00000000)
T3090 144:634.079 - 0.017ms returns 0
T3090 144:634.091 JLINK_WriteReg(R7, 0x00000000)
T3090 144:634.104 - 0.018ms returns 0
T3090 144:634.116 JLINK_WriteReg(R8, 0x00000000)
T3090 144:634.128 - 0.018ms returns 0
T3090 144:634.141 JLINK_WriteReg(R9, 0x20000148)
T3090 144:634.152 - 0.017ms returns 0
T3090 144:634.165 JLINK_WriteReg(R10, 0x00000000)
T3090 144:634.177 - 0.018ms returns 0
T3090 144:634.190 JLINK_WriteReg(R11, 0x00000000)
T3090 144:634.202 - 0.018ms returns 0
T3090 144:634.214 JLINK_WriteReg(R12, 0x00000000)
T3090 144:634.226 - 0.018ms returns 0
T3090 144:634.239 JLINK_WriteReg(R13 (SP), 0x20001000)
T3090 144:634.255 - 0.022ms returns 0
T3090 144:634.267 JLINK_WriteReg(R14, 0x20000001)
T3090 144:634.279 - 0.017ms returns 0
T3090 144:634.292 JLINK_WriteReg(R15 (PC), 0x200000D8)
T3090 144:634.304 - 0.022ms returns 0
T3090 144:634.324 JLINK_WriteReg(XPSR, 0x01000000)
T3090 144:634.336 - 0.018ms returns 0
T3090 144:634.348 JLINK_WriteReg(MSP, 0x20001000)
T3090 144:634.360 - 0.017ms returns 0
T3090 144:634.373 JLINK_WriteReg(PSP, 0x20001000)
T3090 144:634.385 - 0.018ms returns 0
T3090 144:634.398 JLINK_WriteReg(CFBP, 0x00000000)
T3090 144:634.410 - 0.018ms returns 0
T3090 144:634.423 JLINK_SetBPEx(Addr = 0x20000000, Type = 0xFFFFFFF2)
T3090 144:634.436 - 0.019ms returns 0x0000000C
T3090 144:634.449 JLINK_Go()
T3090 144:634.467   CPU_ReadMem(4 bytes @ 0xE0001000)
T3090 144:634.875   CPU_WriteMem(4 bytes @ 0xE0001000)
T3090 144:638.398 - 3.977ms
T3090 144:638.439 JLINK_IsHalted()
T3090 144:638.861 - 0.435ms returns FALSE
T3090 144:638.884 JLINK_HasError()
T3090 144:640.329 JLINK_IsHalted()
T3090 144:641.267 - 0.982ms returns FALSE
T3090 144:641.327 JLINK_HasError()
T3090 144:643.287 JLINK_IsHalted()
T3090 144:644.249 - 0.993ms returns FALSE
T3090 144:644.293 JLINK_HasError()
T3090 144:646.347 JLINK_IsHalted()
T3090 144:648.408   CPU_ReadMem(2 bytes @ 0x20000000)
T3090 144:648.809 - 2.474ms returns TRUE
T3090 144:648.832 JLINK_ReadReg(R15 (PC))
T3090 144:648.849 - 0.023ms returns 0x20000000
T3090 144:648.863 JLINK_ClrBPEx(BPHandle = 0x0000000C)
T3090 144:648.877 - 0.033ms returns 0x00
T3090 144:648.903 JLINK_ReadReg(R0)
T3090 144:648.916 - 0.018ms returns 0x00000000
T3090 144:649.289 JLINK_WriteMem(0x2000014C, 0x200 Bytes, ...)
T3090 144:649.308   Data:  00 F0 F2 FE 18 48 00 88 40 1C 17 49 08 80 01 20 ...
T3090 144:649.333   CPU_WriteMem(512 bytes @ 0x2000014C)
T3090 144:651.923 - 2.660ms returns 0x200
T3090 144:651.977 JLINK_HasError()
T3090 144:651.991 JLINK_WriteReg(R0, 0x00001000)
T3090 144:652.009 - 0.024ms returns 0
T3090 144:652.022 JLINK_WriteReg(R1, 0x00000200)
T3090 144:652.035 - 0.018ms returns 0
T3090 144:652.048 JLINK_WriteReg(R2, 0x2000014C)
T3090 144:652.060 - 0.018ms returns 0
T3090 144:652.073 JLINK_WriteReg(R3, 0x00000000)
T3090 144:652.085 - 0.018ms returns 0
T3090 144:652.098 JLINK_WriteReg(R4, 0x00000000)
T3090 144:652.110 - 0.018ms returns 0
T3090 144:652.123 JLINK_WriteReg(R5, 0x00000000)
T3090 144:652.135 - 0.018ms returns 0
T3090 144:652.147 JLINK_WriteReg(R6, 0x00000000)
T3090 144:652.160 - 0.018ms returns 0
T3090 144:652.172 JLINK_WriteReg(R7, 0x00000000)
T3090 144:652.184 - 0.018ms returns 0
T3090 144:652.197 JLINK_WriteReg(R8, 0x00000000)
T3090 144:652.209 - 0.018ms returns 0
T3090 144:652.221 JLINK_WriteReg(R9, 0x20000148)
T3090 144:652.234 - 0.018ms returns 0
T3090 144:652.246 JLINK_WriteReg(R10, 0x00000000)
T3090 144:652.258 - 0.017ms returns 0
T3090 144:652.271 JLINK_WriteReg(R11, 0x00000000)
T3090 144:652.283 - 0.018ms returns 0
T3090 144:652.295 JLINK_WriteReg(R12, 0x00000000)
T3090 144:652.308 - 0.018ms returns 0
T3090 144:652.320 JLINK_WriteReg(R13 (SP), 0x20001000)
T3090 144:652.333 - 0.018ms returns 0
T3090 144:652.346 JLINK_WriteReg(R14, 0x20000001)
T3090 144:652.358 - 0.018ms returns 0
T3090 144:652.370 JLINK_WriteReg(R15 (PC), 0x200000D8)
T3090 144:652.383 - 0.018ms returns 0
T3090 144:652.395 JLINK_WriteReg(XPSR, 0x01000000)
T3090 144:652.408 - 0.018ms returns 0
T3090 144:652.420 JLINK_WriteReg(MSP, 0x20001000)
T3090 144:652.432 - 0.018ms returns 0
T3090 144:652.445 JLINK_WriteReg(PSP, 0x20001000)
T3090 144:652.457 - 0.018ms returns 0
T3090 144:652.469 JLINK_WriteReg(CFBP, 0x00000000)
T3090 144:652.481 - 0.018ms returns 0
T3090 144:652.494 JLINK_SetBPEx(Addr = 0x20000000, Type = 0xFFFFFFF2)
T3090 144:652.508 - 0.019ms returns 0x0000000D
T3090 144:652.521 JLINK_Go()
T3090 144:652.538   CPU_ReadMem(4 bytes @ 0xE0001000)
T3090 144:653.278   CPU_WriteMem(4 bytes @ 0xE0001000)
T3090 144:656.243 - 3.747ms
T3090 144:656.280 JLINK_IsHalted()
T3090 144:657.009 - 0.753ms returns FALSE
T3090 144:657.045 JLINK_HasError()
T3090 144:660.482 JLINK_IsHalted()
T3090 144:660.971 - 0.523ms returns FALSE
T3090 144:661.016 JLINK_HasError()
T3090 144:662.677 JLINK_IsHalted()
T3090 144:664.929   CPU_ReadMem(2 bytes @ 0x20000000)
T3090 144:665.477 - 2.823ms returns TRUE
T3090 144:665.514 JLINK_ReadReg(R15 (PC))
T3090 144:665.539 - 0.034ms returns 0x20000000
T3090 144:665.559 JLINK_ClrBPEx(BPHandle = 0x0000000D)
T3090 144:665.576 - 0.025ms returns 0x00
T3090 144:665.592 JLINK_ReadReg(R0)
T3090 144:665.620 - 0.033ms returns 0x00000000
T3090 144:666.065 JLINK_WriteMem(0x2000014C, 0x200 Bytes, ...)
T3090 144:666.104   Data:  02 4B 9B 78 1A 41 10 46 70 47 00 00 88 04 00 20 ...
T3090 144:666.152   CPU_WriteMem(512 bytes @ 0x2000014C)
T3090 144:668.680 - 2.642ms returns 0x200
T3090 144:668.725 JLINK_HasError()
T3090 144:668.761 JLINK_WriteReg(R0, 0x00001200)
T3090 144:668.779 - 0.025ms returns 0
T3090 144:668.794 JLINK_WriteReg(R1, 0x00000200)
T3090 144:668.806 - 0.018ms returns 0
T3090 144:668.819 JLINK_WriteReg(R2, 0x2000014C)
T3090 144:668.831 - 0.018ms returns 0
T3090 144:668.845 JLINK_WriteReg(R3, 0x00000000)
T3090 144:668.857 - 0.018ms returns 0
T3090 144:668.869 JLINK_WriteReg(R4, 0x00000000)
T3090 144:668.881 - 0.017ms returns 0
T3090 144:668.894 JLINK_WriteReg(R5, 0x00000000)
T3090 144:668.906 - 0.018ms returns 0
T3090 144:668.918 JLINK_WriteReg(R6, 0x00000000)
T3090 144:668.930 - 0.018ms returns 0
T3090 144:668.943 JLINK_WriteReg(R7, 0x00000000)
T3090 144:668.955 - 0.017ms returns 0
T3090 144:668.968 JLINK_WriteReg(R8, 0x00000000)
T3090 144:668.980 - 0.017ms returns 0
T3090 144:668.993 JLINK_WriteReg(R9, 0x20000148)
T3090 144:669.005 - 0.017ms returns 0
T3090 144:669.018 JLINK_WriteReg(R10, 0x00000000)
T3090 144:669.030 - 0.018ms returns 0
T3090 144:669.043 JLINK_WriteReg(R11, 0x00000000)
T3090 144:669.055 - 0.018ms returns 0
T3090 144:669.068 JLINK_WriteReg(R12, 0x00000000)
T3090 144:669.080 - 0.018ms returns 0
T3090 144:669.093 JLINK_WriteReg(R13 (SP), 0x20001000)
T3090 144:669.105 - 0.018ms returns 0
T3090 144:669.192 JLINK_WriteReg(R14, 0x20000001)
